Time [s],Packet ID,MOSI,MISO
2.591468200000000,0,0x2A,0xFF
2.591481560000000,0,0xCC,0xFF
2.591495920000000,0,0xCC,0xFF
2.591510240000000,0,0xCC,0xFF
2.591524600000000,0,0xCC,0xFF
2.591538960000000,0,0xCC,0xFF
2.591555520000000,1,0x30,0xFF
2.591568880000000,1,0xCC,0xFF
2.591583240000000,1,0xCC,0xFF
2.591597560000000,1,0xCC,0xFF
2.591611920000000,1,0xCC,0xFF
2.591626280000000,1,0xCC,0xFF
2.591645320000000,2,0x3F,0xFF
2.591658680000000,2,0x0A,0xFF
2.591673000000000,2,0x6D,0xFF
2.591687360000000,2,0x67,0xFF
2.591701720000000,2,0x9C,0xFF
2.591716040000000,2,0x46,0xFF
2.591734120000000,3,0x3E,0xFF
2.591747480000000,3,0xF6,0xFF
2.591761840000000,3,0x33,0xFF
2.591776160000000,3,0x5D,0xFF
2.591795720000000,4,0x3A,0xFF
2.591809080000000,4,0x45,0xFF
2.591823440000000,4,0x21,0xFF
2.591837760000000,4,0xEF,0xFF
2.591852120000000,4,0x2C,0xFF
2.591866440000000,4,0x5A,0xFF
2.591880800000000,4,0x50,0xFF
2.591897640000000,5,0x39,0xFF
2.591911000000000,5,0x01,0xFF
2.591929040000000,6,0x3B,0xFF
2.591942400000000,6,0x0B,0xFF
2.591956760000000,6,0xDF,0xFF
2.591971080000000,6,0x02,0xFF
2.591988920000000,7,0xE1,0xFF
2.592002000000000,7,0x00,0xFF
2.592019080000000,8,0xE2,0xFF
2.592032200000000,8,0x00,0xFF
2.592049280000000,9,0x27,0xFF
2.592062400000000,9,0x70,0xFF
2.592079480000000,10,0x21,0xFF
2.592092600000000,10,0x00,0xFF
2.592109640000000,11,0x22,0xFF
2.592122760000000,11,0x01,0xFF
2.592139840000000,12,0x23,0xFF
2.592152960000000,12,0x03,0xFF
2.592170040000000,13,0x25,0xFF
2.592183120000000,13,0x02,0xFF
2.592200200000000,14,0x24,0xFF
2.592213320000000,14,0x00,0xFF
2.592230400000000,15,0x31,0xFF
2.592243520000000,15,0x0B,0xFF
2.592260600000000,16,0x26,0xFF
2.592273680000000,16,0x3E,0xFF
2.592290760000000,17,0x50,0xFF
2.592303880000000,17,0x73,0xFF
2.592320960000000,18,0x3C,0xFF
2.592334080000000,18,0x00,0xFF
2.592351120000000,19,0x3D,0xFF
2.592364240000000,19,0x00,0xFF
2.592381320000000,20,0x39,0xFF
2.592394440000000,20,0x01,0xFF
2.692831240000000,21,0x10,0xFF
2.692843320000000,21,0x00,0xCC
2.692868840000000,22,0x20,0xFF
2.692881920000000,22,0x8E,0xFF
2.796310920000000,23,0x20,0xFF
2.796324080000000,23,0x8E,0xFF
2.796339200000000,24,0xE1,0xFF
2.796354320000000,25,0xE2,0xFF
2.796369920000000,26,0x27,0xFF
2.796383040000000,26,0x70,0xFF
2.796398680000000,27,0x25,0xFF
2.796411800000000,27,0x02,0xFF
2.796430120000000,28,0xA0,0xFF
2.796443520000000,28,0xAA,0xFF
2.796457880000000,28,0xD7,0xFF
2.796472240000000,28,0x4A,0xFF
2.796486640000000,28,0x98,0xFF
2.796501000000000,28,0x64,0xFF
2.796515360000000,28,0xE8,0xFF
2.796529720000000,28,0x03,0xFF
2.796544120000000,28,0xDC,0xFF
2.796558480000000,28,0x05,0xFF
2.796572840000000,28,0x00,0xFF
2.796587240000000,28,0x00,0xFF
2.799289640000000,29,0x20,0xFF
2.799302800000000,29,0x8E,0xFF
2.799317960000000,30,0xE1,0xFF
2.799333080000000,31,0xE2,0xFF
2.799348720000000,32,0x27,0xFF
2.799361840000000,32,0x70,0xFF
2.799377480000000,33,0x25,0xFF
2.799390640000000,33,0x02,0xFF
2.799409040000000,34,0xA0,0xFF
2.799422440000000,34,0xAA,0xFF
2.799436800000000,34,0xD7,0xFF
2.799451200000000,34,0x4A,0xFF
2.799465600000000,34,0x98,0xFF
2.799480000000000,34,0x64,0xFF
2.799494400000000,34,0xDC,0xFF
2.799508760000000,34,0x05,0xFF
2.799523160000000,34,0xDC,0xFF
2.799537560000000,34,0x05,0xFF
2.799551960000000,34,0x00,0xFF
2.799566360000000,34,0x00,0xFF
2.802268520000000,35,0x20,0xFF
2.802281680000000,35,0x8E,0xFF
2.802296800000000,36,0xE1,0xFF
2.802311960000000,37,0xE2,0xFF
2.802327560000000,38,0x27,0xFF
2.802340720000000,38,0x70,0xFF
2.802356360000000,39,0x25,0xFF
2.802369520000000,39,0x02,0xFF
2.802387880000000,40,0xA0,0xFF
2.802401280000000,40,0xAA,0xFF
2.802415680000000,40,0xD7,0xFF
2.802430080000000,40,0x4A,0xFF
2.802444480000000,40,0x98,0xFF
2.802458840000000,40,0x64,0xFF
2.802473240000000,40,0xDC,0xFF
2.802487640000000,40,0x05,0xFF
2.802502040000000,40,0xDC,0xFF
2.802516400000000,40,0x05,0xFF
2.802530800000000,40,0x00,0xFF
2.802545200000000,40,0x00,0xFF
2.805247280000000,41,0x20,0xFF
2.805260440000000,41,0x8E,0xFF
2.805275600000000,42,0xE1,0xFF
2.805290720000000,43,0xE2,0xFF
2.805306360000000,44,0x27,0xFF
2.805319480000000,44,0x70,0xFF
2.805335120000000,45,0x25,0xFF
2.805348280000000,45,0x02,0xFF
2.805366640000000,46,0xA0,0xFF
2.805380040000000,46,0xAA,0xFF
2.805394440000000,46,0xD7,0xFF
2.805408840000000,46,0x4A,0xFF
2.805423240000000,46,0x98,0xFF
2.805437600000000,46,0x64,0xFF
2.805452000000000,46,0xDC,0xFF
2.805466400000000,46,0x05,0xFF
2.805480800000000,46,0xDC,0xFF
2.805495160000000,46,0x05,0xFF
2.805509560000000,46,0x00,0xFF
2.805523960000000,46,0x00,0xFF
2.808226120000000,47,0x20,0xFF
2.808239280000000,47,0x8E,0xFF
2.808254400000000,48,0xE1,0xFF
2.808269560000000,49,0xE2,0xFF
2.808285200000000,50,0x27,0xFF
2.808298360000000,50,0x70,0xFF
2.808314000000000,51,0x25,0xFF
2.808327120000000,51,0x02,0xFF
2.808345520000000,52,0xA0,0xFF
2.808358920000000,52,0xAA,0xFF
2.808373280000000,52,0xD7,0xFF
2.808387680000000,52,0x4A,0xFF
2.808402080000000,52,0x98,0xFF
2.808416440000000,52,0x64,0xFF
2.808430840000000,52,0xDC,0xFF
2.808445240000000,52,0x05,0xFF
2.808459640000000,52,0xDC,0xFF
2.808474040000000,52,0x05,0xFF
2.808488400000000,52,0x00,0xFF
2.808502800000000,52,0x00,0xFF
2.811205000000000,53,0x20,0xFF
2.811218160000000,53,0x8E,0xFF
2.811233320000000,54,0xE1,0xFF
2.811248440000000,55,0xE2,0xFF
2.811264080000000,56,0x27,0xFF
2.811277240000000,56,0x70,0xFF
2.811292840000000,57,0x25,0xFF
2.811306000000000,57,0x02,0xFF
2.811324360000000,58,0xA0,0xFF
2.811337760000000,58,0xAA,0xFF
2.811352160000000,58,0xD7,0xFF
2.811366560000000,58,0x4A,0xFF
2.811380960000000,58,0x98,0xFF
2.811395320000000,58,0x64,0xFF
2.811409720000000,58,0xDC,0xFF
2.811424120000000,58,0x05,0xFF
2.811438480000000,58,0xDC,0xFF
2.811452880000000,58,0x05,0xFF
2.811467280000000,58,0x00,0xFF
2.811481680000000,58,0x00,0xFF
2.814183840000000,59,0x20,0xFF
2.814197000000000,59,0x8E,0xFF
2.814212160000000,60,0xE1,0xFF
2.814227280000000,61,0xE2,0xFF
2.814242920000000,62,0x27,0xFF
2.814256040000000,62,0x70,0xFF
2.814271680000000,63,0x25,0xFF
2.814284840000000,63,0x02,0xFF
2.814303200000000,64,0xA0,0xFF
2.814316600000000,64,0xAA,0xFF
2.814331000000000,64,0xD7,0xFF
2.814345400000000,64,0x4A,0xFF
2.814359760000000,64,0x98,0xFF
2.814374160000000,64,0x64,0xFF
2.814388560000000,64,0xDC,0xFF
2.814402960000000,64,0x05,0xFF
2.814417320000000,64,0xDC,0xFF
2.814431720000000,64,0x05,0xFF
2.814446120000000,64,0x00,0xFF
2.814460520000000,64,0x00,0xFF
2.817163040000000,65,0x20,0xFF
2.817176160000000,65,0x8E,0xFF
2.817191320000000,66,0xE1,0xFF
2.817206440000000,67,0xE2,0xFF
2.817222080000000,68,0x27,0xFF
2.817235240000000,68,0x70,0xFF
2.817250880000000,69,0x25,0xFF
2.817264040000000,69,0x02,0xFF
2.817282400000000,70,0xA0,0xFF
2.817295800000000,70,0xAA,0xFF
2.817310160000000,70,0xD7,0xFF
2.817324560000000,70,0x4A,0xFF
2.817338960000000,70,0x98,0xFF
2.817353360000000,70,0x64,0xFF
2.817367760000000,70,0xDC,0xFF
2.817382120000000,70,0x05,0xFF
2.817396520000000,70,0xDC,0xFF
2.817410920000000,70,0x05,0xFF
2.817425280000000,70,0x00,0xFF
2.817439680000000,70,0x00,0xFF
2.820141600000000,71,0x20,0xFF
2.820154760000000,71,0x8E,0xFF
2.820169880000000,72,0xE1,0xFF
2.820185040000000,73,0xE2,0xFF
2.820200680000000,74,0x27,0xFF
2.820213800000000,74,0x70,0xFF
2.820229440000000,75,0x25,0xFF
2.820242600000000,75,0x02,0xFF
2.820260960000000,76,0xA0,0xFF
2.820274360000000,76,0xAA,0xFF
2.820288760000000,76,0xD7,0xFF
2.820303120000000,76,0x4A,0xFF
2.820317520000000,76,0x98,0xFF
2.820331920000000,76,0x64,0xFF
2.820346320000000,76,0xDC,0xFF
2.820360680000000,76,0x05,0xFF
2.820375080000000,76,0xDC,0xFF
2.820389480000000,76,0x05,0xFF
2.820403880000000,76,0x00,0xFF
2.820418280000000,76,0x00,0xFF
2.823120400000000,77,0x20,0xFF
2.823133560000000,77,0x8E,0xFF
2.823148680000000,78,0xE1,0xFF
2.823163800000000,79,0xE2,0xFF
2.823179440000000,80,0x27,0xFF
2.823192600000000,80,0x70,0xFF
2.823208240000000,81,0x25,0xFF
2.823221360000000,81,0x02,0xFF
2.823239760000000,82,0xA0,0xFF
2.823253160000000,82,0xAA,0xFF
2.823267520000000,82,0xD7,0xFF
2.823281920000000,82,0x4A,0xFF
2.823296320000000,82,0x98,0xFF
2.823310680000000,82,0x64,0xFF
2.823325080000000,82,0xDC,0xFF
2.823339480000000,82,0x05,0xFF
2.823353880000000,82,0xDC,0xFF
2.823368240000000,82,0x05,0xFF
2.823382640000000,82,0x00,0xFF
2.823397040000000,82,0x00,0xFF
2.826099040000000,83,0x20,0xFF
2.826112200000000,83,0x8E,0xFF
2.826127360000000,84,0xE1,0xFF
2.826142480000000,85,0xE2,0xFF
2.826158120000000,86,0x27,0xFF
2.826171280000000,86,0x70,0xFF
2.826186920000000,87,0x25,0xFF
2.826200080000000,87,0x02,0xFF
2.826218440000000,88,0xA0,0xFF
2.826231840000000,88,0xAA,0xFF
2.826246200000000,88,0xD7,0xFF
2.826260600000000,88,0x4A,0xFF
2.826275000000000,88,0x98,0xFF
2.826289400000000,88,0x64,0xFF
2.826303800000000,88,0xDC,0xFF
2.826318160000000,88,0x05,0xFF
2.826332560000000,88,0xDC,0xFF
2.826346960000000,88,0x05,0xFF
2.826361320000000,88,0x00,0xFF
2.826375720000000,88,0x00,0xFF
2.829077840000000,89,0x20,0xFF
2.829091000000000,89,0x8E,0xFF
2.829106120000000,90,0xE1,0xFF
2.829121280000000,91,0xE2,0xFF
2.829136880000000,92,0x27,0xFF
2.829150040000000,92,0x70,0xFF
2.829165680000000,93,0x25,0xFF
2.829178800000000,93,0x02,0xFF
2.829197200000000,94,0xA0,0xFF
2.829210600000000,94,0xAA,0xFF
2.829224960000000,94,0xD7,0xFF
2.829239360000000,94,0x4A,0xFF
2.829253760000000,94,0x98,0xFF
2.829268120000000,94,0x64,0xFF
2.829282520000000,94,0xDC,0xFF
2.829296920000000,94,0x05,0xFF
2.829311320000000,94,0xDC,0xFF
2.829325680000000,94,0x05,0xFF
2.829340080000000,94,0x00,0xFF
2.829354480000000,94,0x00,0xFF
2.832056560000000,95,0x20,0xFF
2.832069720000000,95,0x8E,0xFF
2.832084840000000,96,0xE1,0xFF
2.832099960000000,97,0xE2,0xFF
2.832115600000000,98,0x27,0xFF
2.832128760000000,98,0x70,0xFF
2.832144400000000,99,0x25,0xFF
2.832157560000000,99,0x02,0xFF
2.832175920000000,100,0xA0,0xFF
2.832189320000000,100,0xAA,0xFF
2.832203720000000,100,0xD7,0xFF
2.832218080000000,100,0x4A,0xFF
2.832232480000000,100,0x98,0xFF
2.832246880000000,100,0x64,0xFF
2.832261280000000,100,0xDC,0xFF
2.832275640000000,100,0x05,0xFF
2.832290040000000,100,0xDC,0xFF
2.832304440000000,100,0x05,0xFF
2.832318840000000,100,0x00,0xFF
2.832333200000000,100,0x00,0xFF
2.835035360000000,101,0x20,0xFF
2.835048520000000,101,0x8E,0xFF
2.835063680000000,102,0xE1,0xFF
2.835078800000000,103,0xE2,0xFF
2.835094440000000,104,0x27,0xFF
2.835107600000000,104,0x70,0xFF
2.835123240000000,105,0x25,0xFF
2.835136400000000,105,0x02,0xFF
2.835154760000000,106,0xA0,0xFF
2.835168160000000,106,0xAA,0xFF
2.835182560000000,106,0xD7,0xFF
2.835196920000000,106,0x4A,0xFF
2.835211320000000,106,0x98,0xFF
2.835225720000000,106,0x64,0xFF
2.835240120000000,106,0xDC,0xFF
2.835254480000000,106,0x05,0xFF
2.835268880000000,106,0xDC,0xFF
2.835283280000000,106,0x05,0xFF
2.835297680000000,106,0x00,0xFF
2.835312040000000,106,0x00,0xFF
2.838013480000000,107,0x20,0xFF
2.838026640000000,107,0x8E,0xFF
2.838041760000000,108,0xE1,0xFF
2.838056920000000,109,0xE2,0xFF
2.838072560000000,110,0x27,0xFF
2.838085720000000,110,0x70,0xFF
2.838101320000000,111,0x25,0xFF
2.838114480000000,111,0x02,0xFF
2.838132880000000,112,0xA0,0xFF
2.838146280000000,112,0xAA,0xFF
2.838160640000000,112,0xD7,0xFF
2.838175040000000,112,0x4A,0xFF
2.838189440000000,112,0x98,0xFF
2.838203840000000,112,0x64,0xFF
2.838218200000000,112,0xDC,0xFF
2.838232600000000,112,0x05,0xFF
2.838247000000000,112,0xDC,0xFF
2.838261400000000,112,0x05,0xFF
2.838275760000000,112,0x00,0xFF
2.838290160000000,112,0x00,0xFF
2.840992040000000,113,0x20,0xFF
2.841005200000000,113,0x8E,0xFF
2.841020320000000,114,0xE1,0xFF
2.841035440000000,115,0xE2,0xFF
2.841051080000000,116,0x27,0xFF
2.841064240000000,116,0x70,0xFF
2.841079880000000,117,0x25,0xFF
2.841093040000000,117,0x02,0xFF
2.841111400000000,118,0xA0,0xFF
2.841124800000000,118,0xAA,0xFF
2.841139200000000,118,0xD7,0xFF
2.841153560000000,118,0x4A,0xFF
2.841167960000000,118,0x98,0xFF
2.841182320000000,118,0x64,0xFF
2.841196720000000,118,0xDC,0xFF
2.841211120000000,118,0x05,0xFF
2.841225520000000,118,0xDC,0xFF
2.841239920000000,118,0x05,0xFF
2.841254280000000,118,0x00,0xFF
2.841268680000000,118,0x00,0xFF
2.843970840000000,119,0x20,0xFF
2.843984000000000,119,0x8E,0xFF
2.843999120000000,120,0xE1,0xFF
2.844014280000000,121,0xE2,0xFF
2.844029920000000,122,0x27,0xFF
2.844043080000000,122,0x70,0xFF
2.844058680000000,123,0x25,0xFF
2.844071840000000,123,0x02,0xFF
2.844090200000000,124,0xA0,0xFF
2.844103600000000,124,0xAA,0xFF
2.844118000000000,124,0xD7,0xFF
2.844132400000000,124,0x4A,0xFF
2.844146800000000,124,0x98,0xFF
2.844161160000000,124,0x64,0xFF
2.844175560000000,124,0xDC,0xFF
2.844189960000000,124,0x05,0xFF
2.844204320000000,124,0xDC,0xFF
2.844218720000000,124,0x05,0xFF
2.844233120000000,124,0x00,0xFF
2.844247520000000,124,0x00,0xFF
2.846949600000000,125,0x20,0xFF
2.846962760000000,125,0x8E,0xFF
2.846977920000000,126,0xE1,0xFF
2.846993040000000,127,0xE2,0xFF
2.847008680000000,128,0x27,0xFF
2.847021800000000,128,0x70,0xFF
2.847037440000000,129,0x25,0xFF
2.847050600000000,129,0x02,0xFF
2.847068960000000,130,0xA0,0xFF
2.847082360000000,130,0xAA,0xFF
2.847096760000000,130,0xD7,0xFF
2.847111160000000,130,0x4A,0xFF
2.847125560000000,130,0x98,0xFF
2.847139920000000,130,0x64,0xFF
2.847154320000000,130,0xDC,0xFF
2.847168720000000,130,0x05,0xFF
2.847183120000000,130,0xDC,0xFF
2.847197480000000,130,0x05,0xFF
2.847211880000000,130,0x00,0xFF
2.847226280000000,130,0x00,0xFF
2.849928640000000,131,0x20,0xFF
2.849941800000000,131,0x8E,0xFF
2.849956920000000,132,0xE1,0xFF
2.849972080000000,133,0xE2,0xFF
2.849987680000000,134,0x27,0xFF
2.850000840000000,134,0x70,0xFF
2.850016480000000,135,0x25,0xFF
2.850029640000000,135,0x02,0xFF
2.850048000000000,136,0xA0,0xFF
2.850061400000000,136,0xAA,0xFF
2.850075800000000,136,0xD7,0xFF
2.850090160000000,136,0x4A,0xFF
2.850104560000000,136,0x98,0xFF
2.850118960000000,136,0x64,0xFF
2.850133360000000,136,0xDC,0xFF
2.850147760000000,136,0x05,0xFF
2.850162160000000,136,0xDC,0xFF
2.850176520000000,136,0x05,0xFF
2.850190920000000,136,0x00,0xFF
2.850205280000000,136,0x00,0xFF
2.852907000000000,137,0x00,0xFF
2.852920120000000,137,0x8E,0xFF
2.852935280000000,138,0xE1,0xFF
2.852950400000000,139,0xE2,0xFF
2.852966040000000,140,0x27,0xFF
2.852979200000000,140,0x70,0xFF
2.852994840000000,141,0x25,0xFF
2.853007960000000,141,0x02,0xFF
2.853026360000000,142,0xA0,0xFF
2.853039760000000,142,0xAA,0xFF
2.853054120000000,142,0xD7,0xFF
2.853068520000000,142,0x4A,0xFF
2.853082920000000,142,0x98,0xFF
2.853097320000000,142,0x64,0xFF
2.853111680000000,142,0xDC,0xFF
2.853126080000000,142,0x05,0xFF
2.853140440000000,142,0xDC,0xFF
2.853154840000000,142,0x05,0xFF
2.853169240000000,142,0x00,0xFF
2.853183640000000,142,0x00,0xFF
2.855885360000000,143,0x20,0xFF
2.855898520000000,143,0x8E,0xFF
2.855913680000000,144,0xE1,0xFF
2.855928800000000,145,0xE2,0xFF
2.855944440000000,146,0x27,0xFF
2.855957560000000,146,0x70,0xFF
2.855973200000000,147,0x25,0xFF
2.855986360000000,147,0x02,0xFF
2.856004760000000,148,0xA0,0xFF
2.856018160000000,148,0xAA,0xFF
2.856032520000000,148,0xD7,0xFF
2.856046920000000,148,0x4A,0xFF
2.856061320000000,148,0x98,0xFF
2.856075680000000,148,0x64,0xFF
2.856090080000000,148,0xDC,0xFF
2.856104480000000,148,0x05,0xFF
2.856118880000000,148,0xDC,0xFF
2.856133280000000,148,0x05,0xFF
2.856147640000000,148,0x00,0xFF
2.856162040000000,148,0x00,0xFF
2.858864080000000,149,0x20,0xFF
2.858877240000000,149,0x8E,0xFF
2.858892400000000,150,0xE1,0xFF
2.858907520000000,151,0xE2,0xFF
2.858923160000000,152,0x27,0xFF
2.858936320000000,152,0x70,0xFF
2.858951960000000,153,0x25,0xFF
2.858965120000000,153,0x02,0xFF
2.858983480000000,154,0xA0,0xFF
2.858996840000000,154,0xAA,0xFF
2.859011240000000,154,0xD7,0xFF
2.859025640000000,154,0x4A,0xFF
2.859040040000000,154,0x98,0xFF
2.859054400000000,154,0x64,0xFF
2.859068800000000,154,0xDC,0xFF
2.859083200000000,154,0x05,0xFF
2.859097600000000,154,0xDC,0xFF
2.859111960000000,154,0x05,0xFF
2.859126360000000,154,0x00,0xFF
2.859140760000000,154,0x00,0xFF
2.861842840000000,155,0x20,0xFF
2.861856000000000,155,0x8E,0xFF
2.861871120000000,156,0xE1,0xFF
2.861886280000000,157,0xE2,0xFF
2.861901920000000,158,0x27,0xFF
2.861915040000000,158,0x70,0xFF
2.861930680000000,159,0x25,0xFF
2.861943840000000,159,0x02,0xFF
2.861962200000000,160,0xA0,0xFF
2.861975600000000,160,0xAA,0xFF
2.861990000000000,160,0xD7,0xFF
2.862004360000000,160,0x4A,0xFF
2.862018800000000,160,0x98,0xFF
2.862033160000000,160,0x64,0xFF
2.862047560000000,160,0xDC,0xFF
2.862061920000000,160,0x05,0xFF
2.862076360000000,160,0xDC,0xFF
2.862090720000000,160,0x05,0xFF
2.862105120000000,160,0x00,0xFF
2.862119520000000,160,0x00,0xFF
2.864821680000000,161,0x20,0xFF
2.864834840000000,161,0x8E,0xFF
2.864849960000000,162,0xE1,0xFF
2.864865080000000,163,0xE2,0xFF
2.864880720000000,164,0x27,0xFF
2.864893880000000,164,0x70,0xFF
2.864909520000000,165,0x25,0xFF
2.864922640000000,165,0x02,0xFF
2.864941000000000,166,0xA0,0xFF
2.864954440000000,166,0xAA,0xFF
2.864968800000000,166,0xD7,0xFF
2.864983200000000,166,0x4A,0xFF
2.864997560000000,166,0x98,0xFF
2.865011960000000,166,0x64,0xFF
2.865026360000000,166,0xDC,0xFF
2.865040760000000,166,0x05,0xFF
2.865055160000000,166,0xDC,0xFF
2.865069520000000,166,0x05,0xFF
2.865083920000000,166,0x00,0xFF
2.865098320000000,166,0x00,0xFF
2.867800240000000,167,0x20,0xFF
2.867813360000000,167,0x8E,0xFF
2.867828520000000,168,0xE1,0xFF
2.867843640000000,169,0xE2,0xFF
2.867859280000000,170,0x27,0xFF
2.867872440000000,170,0x70,0xFF
2.867888080000000,171,0x25,0xFF
2.867901240000000,171,0x02,0xFF
2.867919600000000,172,0xA0,0xFF
2.867932960000000,172,0xAA,0xFF
2.867947360000000,172,0xD7,0xFF
2.867961760000000,172,0x4A,0xFF
2.867976160000000,172,0x98,0xFF
2.867990560000000,172,0x64,0xFF
2.868004960000000,172,0xDC,0xFF
2.868019320000000,172,0x05,0xFF
2.868033720000000,172,0xDC,0xFF
2.868048120000000,172,0x05,0xFF
2.868062480000000,172,0x00,0xFF
2.868076880000000,172,0x00,0xFF
2.870778840000000,173,0x20,0xFF
2.870792000000000,173,0x8E,0xFF
2.870807120000000,174,0xE1,0xFF
2.870822280000000,175,0xE2,0xFF
2.870837880000000,176,0x27,0xFF
2.870851040000000,176,0x70,0xFF
2.870866680000000,177,0x25,0xFF
2.870879800000000,177,0x02,0xFF
2.870898200000000,178,0xA0,0xFF
2.870911600000000,178,0xAA,0xFF
2.870926000000000,178,0xD7,0xFF
2.870940360000000,178,0x4A,0xFF
2.870954760000000,178,0x98,0xFF
2.870969120000000,178,0x64,0xFF
2.870983520000000,178,0xDC,0xFF
2.870997920000000,178,0x05,0xFF
2.871012320000000,178,0xDC,0xFF
2.871026680000000,178,0x05,0xFF
2.871041080000000,178,0x00,0xFF
2.871055480000000,178,0x00,0xFF
2.873757400000000,179,0x20,0xFF
2.873770520000000,179,0x8E,0xFF
2.873785680000000,180,0xE1,0xFF
2.873800800000000,181,0xE2,0xFF
2.873816440000000,182,0x27,0xFF
2.873829600000000,182,0x70,0xFF
2.873845240000000,183,0x25,0xFF
2.873858360000000,183,0x02,0xFF
2.873876760000000,184,0xA0,0xFF
2.873890120000000,184,0xAA,0xFF
2.873904520000000,184,0xD7,0xFF
2.873918920000000,184,0x4A,0xFF
2.873933320000000,184,0x98,0xFF
2.873947680000000,184,0x64,0xFF
2.873962080000000,184,0xDC,0xFF
2.873976480000000,184,0x05,0xFF
2.873990840000000,184,0xDC,0xFF
2.874005240000000,184,0x05,0xFF
2.874019640000000,184,0x00,0xFF
2.874034000000000,184,0x00,0xFF
2.876736040000000,185,0x20,0xFF
2.876749200000000,185,0x8E,0xFF
2.876764360000000,186,0xE1,0xFF
2.876779480000000,187,0xE2,0xFF
2.876795120000000,188,0x27,0xFF
2.876808280000000,188,0x70,0xFF
2.876823920000000,189,0x25,0xFF
2.876837040000000,189,0x02,0xFF
2.876855400000000,190,0xA0,0xFF
2.876868800000000,190,0xAA,0xFF
2.876883200000000,190,0xD7,0xFF
2.876897600000000,190,0x4A,0xFF
2.876912000000000,190,0x98,0xFF
2.876926360000000,190,0x64,0xFF
2.876940760000000,190,0xDC,0xFF
2.876955160000000,190,0x05,0xFF
2.876969560000000,190,0xDC,0xFF
2.876983920000000,190,0x05,0xFF
2.876998320000000,190,0x00,0xFF
2.877012720000000,190,0x00,0xFF
2.879714680000000,191,0x00,0xFF
2.879727840000000,191,0x8E,0xFF
2.879743000000000,192,0xE1,0xFF
2.879758120000000,193,0xE2,0xFF
2.879773760000000,194,0x27,0xFF
2.879786880000000,194,0x70,0xFF
2.879802520000000,195,0x25,0xFF
2.879815680000000,195,0x02,0xFF
