Time [s],Packet ID,MOSI,MISO
0.000094800000000,0,0xA0AAD74A9864DC05,0xFFFFFFFFFFFFFFFF
0.003074920000000,1,0xA0AAD74A9864DC05,0xFFFFFFFFFFFFFFFF
0.006054440000000,2,0xA0AAD74A9864DC05,0xFFFFFFFFFFFFFFFF
0.009034400000000,3,0xA0AAD74A9864DC05,0xFFFFFFFFFFFFFFFF
0.012013920000000,4,0xA0AAD74A9864DC05,0xFFFFFFFFFFFFFFFF
0.014993600000000,5,0xA0AAD74A9864DC05,0xFFFFFFFFFFFFFFFF
0.017975000000000,6,0xA0AAD74A9864DC05,0xFFFFFFFFFFFFFFFF
0.020956280000000,7,0xA0AAD74A9864DC05,0xFFFFFFFFFFFFFFFF
0.023937600000000,8,0xA0AAD74A9864DC05,0xFFFFFFFFFFFFFFFF
0.026918880000000,9,0xA0AAD74A9864DC05,0xFFFFFFFFFFFFFFFF
0.029900480000000,10,0xA0AAD74A9864DC05,0xFFFFFFFFFFFFFFFF
0.032880600000000,11,0xA0AAD74A9864DC05,0xFFFFFFFFFFFFFFFF
0.035862440000000,12,0xA0AAD74A9864DC05,0xFFFFFFFFFFFFFFFF
0.038844480000000,13,0xA0AAD74A9864DC05,0xFFFFFFFFFFFFFFFF
0.041826680000000,14,0xA0AAD74A9864DC05,0xFFFFFFFFFFFFFFFF
0.044808920000000,15,0xA0AAD74A9864DC05,0xFFFFFFFFFFFFFFFF
0.047791160000000,16,0xA0AAD74A9864DC05,0xFFFFFFFFFFFFFFFF
0.050773640000000,17,0xA0AAD74A9864DC05,0xFFFFFFFFFFFFFFFF
0.053756280000000,18,0xA0AAD74A9864DC05,0xFFFFFFFFFFFFFFFF
0.056738920000000,19,0xA0AAD74A9864DC05,0xFFFFFFFFFFFFFFFF
0.059721520000000,20,0xA0AAD74A9864DC05,0xFFFFFFFFFFFFFFFF
0.062703080000000,21,0xA0AAD74A9864E905,0xFFFFFFFFFFFFFFFF
0.065685000000000,22,0xA0AAD74A9864FD05,0xFFFFFFFFFFFFFFFF
0.068666960000000,23,0xA0AAD74A98640E06,0xFFFFFFFFFFFFFFFF
0.071649160000000,24,0xA0AAD74A98642006,0xFFFFFFFFFFFFFFFF
0.074632000000000,25,0xA0AAD74A98643306,0xFFFFFFFFFFFFFFFF
0.077613920000000,26,0xA0AAD74A98644306,0xFFFFFFFFFFFFFFFF
0.080596600000000,27,0xA0AAD74A98645306,0xFFFFFFFFFFFFFFFF
0.083578400000000,28,0xA0AAD74A98645F06,0xFFFFFFFFFFFFFFFF
0.086560680000000,29,0xA0AAD74A98647206,0xFFFFFFFFFFFFFFFF
0.089542960000000,30,0xA0AAD74A98648006,0xFFFFFFFFFFFFFFFF
0.092525200000000,31,0xA0AAD74A98648D06,0xFFFFFFFFFFFFFFFF
0.095508240000000,32,0xA0AAD74A98649606,0xFFFFFFFFFFFFFFFF
0.098490080000000,33,0xA0AAD74A9864A706,0xFFFFFFFFFFFFFFFF
0.101472760000000,34,0xA0AAD74A9864BA06,0xFFFFFFFFFFFFFFFF
0.104455840000000,35,0xA0AAD74A9864CA06,0xFFFFFFFFFFFFFFFF
0.107437800000000,36,0xA0AAD74A9864DD06,0xFFFFFFFFFFFFFFFF
0.110420040000000,37,0xA0AAD74A9864EE06,0xFFFFFFFFFFFFFFFF
0.113402440000000,38,0xA0AAD74A98640207,0xFFFFFFFFFFFFFFFF
0.116386440000000,39,0xA0AAD74A98641D07,0xFFFFFFFFFFFFFFFF
0.119372160000000,40,0xA0AAD74A98642E07,0xFFFFFFFFFFFFFFFF
0.122357400000000,41,0xA0AAD74A98644407,0xFFFFFFFFFFFFFFFF
0.125342880000000,42,0xA0AAD74A98645B07,0xFFFFFFFFFFFFFFFF
0.128328200000000,43,0xA0AAD74A98647507,0xFFFFFFFFFFFFFFFF
0.131313760000000,44,0xA0AAD74A98648807,0xFFFFFFFFFFFFFFFF
0.134299200000000,45,0xA0AAD74A9864A307,0xFFFFFFFFFFFFFFFF
0.137284440000000,46,0xA0AAD74A9864B407,0xFFFFFFFFFFFFFFFF
0.140270240000000,47,0xA0AAD74A9864C507,0xFFFFFFFFFFFFFFFF
0.143255840000000,48,0xA0AAD74A9864D007,0xFFFFFFFFFFFFFFFF
0.146242000000000,49,0xA0AAD74A9864D007,0xFFFFFFFFFFFFFFFF
0.149228200000000,50,0xA0AAD74A9864D007,0xFFFFFFFFFFFFFFFF
0.152213560000000,51,0xA0AAD74A9864D007,0xFFFFFFFFFFFFFFFF
0.155199080000000,52,0xA0AAD74A9864D007,0xFFFFFFFFFFFFFFFF
0.158184680000000,53,0xA0AAD74A9864D007,0xFFFFFFFFFFFFFFFF
0.161170120000000,54,0xA0AAD74A9864D007,0xFFFFFFFFFFFFFFFF
0.164155720000000,55,0xA0AAD74A9864D007,0xFFFFFFFFFFFFFFFF
0.167142360000000,56,0xA0AAD74A9864D007,0xFFFFFFFFFFFFFFFF
0.170127840000000,57,0xA0AAD74A9864D007,0xFFFFFFFFFFFFFFFF
0.173114000000000,58,0xA0AAD74A9864D007,0xFFFFFFFFFFFFFFFF
0.176100360000000,59,0xA0AAD74A9864D007,0xFFFFFFFFFFFFFFFF
0.179087640000000,60,0xA0AAD74A9864D007,0xFFFFFFFFFFFFFFFF
0.182074040000000,61,0xA0AAD74A9864D007,0xFFFFFFFFFFFFFFFF
0.185060560000000,62,0xA0AAD74A9864D007,0xFFFFFFFFFFFFFFFF
0.188047760000000,63,0xA0AAD74A9864D007,0xFFFFFFFFFFFFFFFF
0.191033400000000,64,0xA0AAD74A9864D007,0xFFFFFFFFFFFFFFFF
0.194019840000000,65,0xA0AAD74A9864D007,0xFFFFFFFFFFFFFFFF
0.197005280000000,66,0xA0AAD74A9864D007,0xFFFFFFFFFFFFFFFF
0.199990880000000,67,0xA0AAD74A9864D007,0xFFFFFFFFFFFFFFFF
0.202976560000000,68,0xA0AAD74A9864D007,0xFFFFFFFFFFFFFFFF
0.205962200000000,69,0xA0AAD74A9864D007,0xFFFFFFFFFFFFFFFF
0.208947840000000,70,0xA0AAD74A9864D007,0xFFFFFFFFFFFFFFFF
0.211934120000000,71,0xA0AAD74A9864D007,0xFFFFFFFFFFFFFFFF
0.214919600000000,72,0xA0AAD74A9864D007,0xFFFFFFFFFFFFFFFF
0.217905200000000,73,0xA0AAD74A9864D007,0xFFFFFFFFFFFFFFFF
0.220890880000000,74,0xA0AAD74A9864D007,0xFFFFFFFFFFFFFFFF
0.223876560000000,75,0xA0AAD74A9864D007,0xFFFFFFFFFFFFFFFF
0.226862360000000,76,0xA0AAD74A9864D007,0xFFFFFFFFFFFFFFFF
0.229848800000000,77,0xA0AAD74A9864D007,0xFFFFFFFFFFFFFFFF
0.232834280000000,78,0xA0AAD74A9864D007,0xFFFFFFFFFFFFFFFF
0.235819720000000,79,0xA0AAD74A9864D007,0xFFFFFFFFFFFFFFFF
0.238805040000000,80,0xA0AAD74A9864D007,0xFFFFFFFFFFFFFFFF
0.241789960000000,81,0xA0AAD74A9864D007,0xFFFFFFFFFFFFFFFF
0.244774840000000,82,0xA0AAD74A9864D007,0xFFFFFFFFFFFFFFFF
0.247760440000000,83,0xA0AAD74A9864D007,0xFFFFFFFFFFFFFFFF
0.250744840000000,84,0xA0AAD74A9864D007,0xFFFFFFFFFFFFFFFF
0.253729320000000,85,0xA0AAD74A9864D007,0xFFFFFFFFFFFFFFFF
0.256713920000000,86,0xA0AAD74A9864D007,0xFFFFFFFFFFFFFFFF
0.259698160000000,87,0xA0AAD74A9864D007,0xFFFFFFFFFFFFFFFF
0.262682600000000,88,0xA0AAD74A9864D007,0xFFFFFFFFFFFFFFFF
0.265666760000000,89,0xA0AAD74A9864D007,0xFFFFFFFFFFFFFFFF
0.268650640000000,90,0xA0AAD74A9864D007,0xFFFFFFFFFFFFFFFF
0.271634560000000,91,0xA0AAD74A9864D007,0xFFFFFFFFFFFFFFFF
0.274618480000000,92,0xA0AAD74A9864D007,0xFFFFFFFFFFFFFFFF
0.277602120000000,93,0xA0AAD74A9864D007,0xFFFFFFFFFFFFFFFF
0.280585640000000,94,0xA0AAD74A9864D007,0xFFFFFFFFFFFFFFFF
0.283569320000000,95,0xA0AAD74A9864D007,0xFFFFFFFFFFFFFFFF
0.286552360000000,96,0xA0AAD74A9864D007,0xFFFFFFFFFFFFFFFF
0.289535760000000,97,0xA0AAD74A9864D007,0xFFFFFFFFFFFFFFFF
0.292519120000000,98,0xA0AAD74A9864D007,0xFFFFFFFFFFFFFFFF
0.295502240000000,99,0xA0AAD74A9864D007,0xFFFFFFFFFFFFFFFF
0.298486640000000,100,0xA0AAD74A9864D007,0xFFFFFFFFFFFFFFFF
0.301469720000000,101,0xA0AAD74A9864D007,0xFFFFFFFFFFFFFFFF
0.304452920000000,102,0xA0AAD74A9864D007,0xFFFFFFFFFFFFFFFF
0.307436000000000,103,0xA0AAD74A9864D007,0xFFFFFFFFFFFFFFFF
0.310419760000000,104,0xA0AAD74A9864D007,0xFFFFFFFFFFFFFFFF
0.313401920000000,105,0xA0AAD74A9864D007,0xFFFFFFFFFFFFFFFF
0.316385680000000,106,0xA0AAD74A9864D007,0xFFFFFFFFFFFFFFFF
0.319368880000000,107,0xA0AAD74A9864D007,0xFFFFFFFFFFFFFFFF
0.322352360000000,108,0xA0AAD74A9864D007,0xFFFFFFFFFFFFFFFF
0.325335760000000,109,0xA0AAD74A9864CD07,0xFFFFFFFFFFFFFFFF
0.328319040000000,110,0xA0AAD74A9864D007,0xFFFFFFFFFFFFFFFF
0.331302280000000,111,0xA0AAD74A9864CF07,0xFFFFFFFFFFFFFFFF
0.334285640000000,112,0xA0AAD74A9864CF07,0xFFFFFFFFFFFFFFFF
0.337268880000000,113,0xA0AAD74A9864CF07,0xFFFFFFFFFFFFFFFF
0.340252320000000,114,0xA0AAD74A9864CF07,0xFFFFFFFFFFFFFFFF
0.343235560000000,115,0xA0AAD74A9864CB07,0xFFFFFFFFFFFFFFFF
0.346218880000000,116,0xA0AAD74A9864CF07,0xFFFFFFFFFFFFFFFF
0.349202400000000,117,0xA0AAD74A9864CF07,0xFFFFFFFFFFFFFFFF
0.352185520000000,118,0xA0AAD74A9864CD07,0xFFFFFFFFFFFFFFFF
0.355169000000000,119,0xA0AAD74A9864CF07,0xFFFFFFFFFFFFFFFF
0.358152640000000,120,0xA0AAD74A9864C807,0xFFFFFFFFFFFFFFFF
0.361136160000000,121,0xA0AAD74A9864CF07,0xFFFFFFFFFFFFFFFF
0.364119560000000,122,0xA0AAD74A9864CE07,0xFFFFFFFFFFFFFFFF
0.367103080000000,123,0xA0AAD74A9864CD07,0xFFFFFFFFFFFFFFFF
0.370086680000000,124,0xA0AAD74A9864CE07,0xFFFFFFFFFFFFFFFF
0.373070160000000,125,0xA0AAD74A9864CE07,0xFFFFFFFFFFFFFFFF
0.376053960000000,126,0xA0AAD74A9864C607,0xFFFFFFFFFFFFFFFF
0.379037640000000,127,0xA0AAD74A9864B107,0xFFFFFFFFFFFFFFFF
0.382021640000000,128,0xA0AAD74A98647707,0xFFFFFFFFFFFFFFFF
0.385005040000000,129,0xA0AAD74A98640307,0xFFFFFFFFFFFFFFFF
0.387988560000000,130,0xA0AAD74A98643706,0xFFFFFFFFFFFFFFFF
0.390970560000000,131,0xA0AAD74A9864DC05,0xFFFFFFFFFFFFFFFF
0.393953240000000,132,0xA0AAD74A9864DC05,0xFFFFFFFFFFFFFFFF
0.396936680000000,133,0xA0AAD74A9864DC05,0xFFFFFFFFFFFFFFFF
0.399920720000000,134,0xA0AAD74A9864DC05,0xFFFFFFFFFFFFFFFF
0.402904360000000,135,0xA0AAD74A9864DC05,0xFFFFFFFFFFFFFFFF
0.405888280000000,136,0xA0AAD74A9864DC05,0xFFFFFFFFFFFFFFFF
0.408872640000000,137,0xA0AAD74A9864DC05,0xFFFFFFFFFFFFFFFF
0.411856880000000,138,0xA0AAD74A9864DC05,0xFFFFFFFFFFFFFFFF
0.414841120000000,139,0xA0AAD74A9864DC05,0xFFFFFFFFFFFFFFFF
0.417825120000000,140,0xA0AAD74A9864DC05,0xFFFFFFFFFFFFFFFF
0.420809280000000,141,0xA0AAD74A9864DC05,0xFFFFFFFFFFFFFFFF
0.423793440000000,142,0xA0AAD74A9864DC05,0xFFFFFFFFFFFFFFFF
0.426777480000000,143,0xA0AAD74A9864DC05,0xFFFFFFFFFFFFFFFF
0.429761680000000,144,0xA0AAD74A9864DC05,0xFFFFFFFFFFFFFFFF
0.432745600000000,145,0xA0AAD74A9864DC05,0xFFFFFFFFFFFFFFFF
0.435729760000000,146,0xA0AAD74A9864DC05,0xFFFFFFFFFFFFFFFF
0.438713840000000,147,0xA0AAD74A9864DC05,0xFFFFFFFFFFFFFFFF
0.441697960000000,148,0xA0AAD74A9864DC05,0xFFFFFFFFFFFFFFFF
0.444682040000000,149,0xA0AAD74A9864DC05,0xFFFFFFFFFFFFFFFF
0.447666120000000,150,0xA0AAD74A9864DC05,0xFFFFFFFFFFFFFFFF
0.450649880000000,151,0xA0AAD74A9864DC05,0xFFFFFFFFFFFFFFFF
0.453633720000000,152,0xA0AAD74A9864DC05,0xFFFFFFFFFFFFFFFF
0.456617680000000,153,0xA0AAD74A9864DC05,0xFFFFFFFFFFFFFFFF
0.459601600000000,154,0xA0AAD74A9864DC05,0xFFFFFFFFFFFFFFFF
0.462585520000000,155,0xA0AAD74A9864DC05,0xFFFFFFFFFFFFFFFF
0.465569640000000,156,0xA0AAD74A9864DC05,0xFFFFFFFFFFFFFFFF
0.468553640000000,157,0xA0AAD74A9864DC05,0xFFFFFFFFFFFFFFFF
0.471537720000000,158,0xA0AAD74A9864DC05,0xFFFFFFFFFFFFFFFF
0.474521600000000,159,0xA0AAD74A9864DC05,0xFFFFFFFFFFFFFFFF
0.477505680000000,160,0xA0AAD74A9864DC05,0xFFFFFFFFFFFFFFFF
0.480489840000000,161,0xA0AAD74A9864DC05,0xFFFFFFFFFFFFFFFF
0.483473840000000,162,0xA0AAD74A9864DC05,0xFFFFFFFFFFFFFFFF
0.486457840000000,163,0xA0AAD74A9864DC05,0xFFFFFFFFFFFFFFFF
0.489442080000000,164,0xA0AAD74A9864DC05,0xFFFFFFFFFFFFFFFF
0.492426200000000,165,0xA0AAD74A9864DC05,0xFFFFFFFFFFFFFFFF
0.495410160000000,166,0xA0AAD74A9864DC05,0xFFFFFFFFFFFFFFFF
0.498394000000000,167,0xA0AAD74A9864DC05,0xFFFFFFFFFFFFFFFF
0.501377880000000,168,0xA0AAD74A9864DC05,0xFFFFFFFFFFFFFFFF
0.504361640000000,169,0xA0AAD74A9864DC05,0xFFFFFFFFFFFFFFFF
0.507345600000000,170,0xA0AAD74A9864DC05,0xFFFFFFFFFFFFFFFF
0.510329640000000,171,0xA0AAD74A9864DC05,0xFFFFFFFFFFFFFFFF
0.513313360000000,172,0xA0AAD74A9864DC05,0xFFFFFFFFFFFFFFFF
0.516297160000000,173,0xA0AAD74A9864DC05,0xFFFFFFFFFFFFFFFF
0.519281040000000,174,0xA0AAD74A9864DC05,0xFFFFFFFFFFFFFFFF
0.522264760000000,175,0xA0AAD74A9864DC05,0xFFFFFFFFFFFFFFFF
0.525248600000000,176,0xA0AAD74A9864DC05,0xFFFFFFFFFFFFFFFF
0.528232280000000,177,0xA0AAD74A9864DC05,0xFFFFFFFFFFFFFFFF
0.531215760000000,178,0xA0AAD74A9864DC05,0xFFFFFFFFFFFFFFFF
0.534199240000000,179,0xA0AAD74A9864DC05,0xFFFFFFFFFFFFFFFF
0.537183040000000,180,0xA0AAD74A9864DC05,0xFFFFFFFFFFFFFFFF
0.540166640000000,181,0xA0AAD74A9864DC05,0xFFFFFFFFFFFFFFFF
0.543150640000000,182,0xA0AAD74A9864DC05,0xFFFFFFFFFFFFFFFF
0.546134400000000,183,0xA0AAD74A9864DC05,0xFFFFFFFFFFFFFFFF
0.549118160000000,184,0xA0AAD74A9864DC05,0xFFFFFFFFFFFFFFFF
0.552101880000000,185,0xA0AAD74A9864DC05,0xFFFFFFFFFFFFFFFF
0.555085360000000,186,0xA0AAD74A9864DC05,0xFFFFFFFFFFFFFFFF
0.558066400000000,187,0xA0AAD74A9864DC05,0xFFFFFFFFFFFFFFFF
0.561047440000000,188,0xA0AAD74A9864DC05,0xFFFFFFFFFFFFFFFF
0.564028640000000,189,0xA0AAD74A9864DC05,0xFFFFFFFFFFFFFFFF
0.567009680000000,190,0xA0AAD74A9864DC05,0xFFFFFFFFFFFFFFFF
0.569990760000000,191,0xA0AAD74A9864DC05,0xFFFFFFFFFFFFFFFF
0.572971720000000,192,0xA0AAD74A9864DC05,0xFFFFFFFFFFFFFFFF
0.575952800000000,193,0xA0AAD74A9864DC05,0xFFFFFFFFFFFFFFFF
0.578933880000000,194,0xA0AAD74A9864DC05,0xFFFFFFFFFFFFFFFF
0.581915240000000,195,0xA0AAD74A9864DC05,0xFFFFFFFFFFFFFFFF
0.584896240000000,196,0xA0AAD74A9864DC05,0xFFFFFFFFFFFFFFFF
0.587877280000000,197,0xA0AAD74A9864DC05,0xFFFFFFFFFFFFFFFF
0.590858400000000,198,0xA0AAD74A9864DC05,0xFFFFFFFFFFFFFFFF
0.593839560000000,199,0xA0AAD74A9864DC05,0xFFFFFFFFFFFFFFFF
0.596820680000000,200,0xA0AAD74A9864DC05,0xFFFFFFFFFFFFFFFF
0.599801640000000,201,0xA0AAD74A9864DC05,0xFFFFFFFFFFFFFFFF
0.602782800000000,202,0xA0AAD74A9864DC05,0xFFFFFFFFFFFFFFFF
0.605763880000000,203,0xA0AAD74A9864DC05,0xFFFFFFFFFFFFFFFF
0.608744960000000,204,0xA0AAD74A9864DC05,0xFFFFFFFFFFFFFFFF
0.611726000000000,205,0xA0AAD74A9864DC05,0xFFFFFFFFFFFFFFFF
0.614707040000000,206,0xA0AAD74A9864DC05,0xFFFFFFFFFFFFFFFF
0.617688040000000,207,0xA0AAD74A9864DC05,0xFFFFFFFFFFFFFFFF
0.620669200000000,208,0xA0AAD74A9864DC05,0xFFFFFFFFFFFFFFFF
0.623650200000000,209,0xA0AAD74A9864DC05,0xFFFFFFFFFFFFFFFF
0.626631160000000,210,0xA0AAD74A9864DC05,0xFFFFFFFFFFFFFFFF
0.629612080000000,211,0xA0AAD74A9864DC05,0xFFFFFFFFFFFFFFFF
0.632592960000000,212,0xA0AAD74A9864DC05,0xFFFFFFFFFFFFFFFF
0.635573960000000,213,0xA0AAD74A9864DC05,0xFFFFFFFFFFFFFFFF
0.638555040000000,214,0xA0AAD74A9864DC05,0xFFFFFFFFFFFFFFFF
0.641536320000000,215,0xA0AAD74A9864DC05,0xFFFFFFFFFFFFFFFF
0.644517480000000,216,0xA0AAD74A9864DC05,0xFFFFFFFFFFFFFFFF
0.647498600000000,217,0xA0AAD74A9864DC05,0xFFFFFFFFFFFFFFFF
0.650479720000000,218,0xA0AAD74A9864DC05,0xFFFFFFFFFFFFFFFF
0.653460680000000,219,0xA0AAD74A9864DC05,0xFFFFFFFFFFFFFFFF
0.656441680000000,220,0xA0AAD74A9864DC05,0xFFFFFFFFFFFFFFFF
0.659423560000000,221,0xA0AAD74A9864DC05,0xFFFFFFFFFFFFFFFF
0.662404320000000,222,0xA0AAD74A9864DC05,0xFFFFFFFFFFFFFFFF
0.665385240000000,223,0xA0AAD74A9864DC05,0xFFFFFFFFFFFFFFFF
0.668366040000000,224,0xA0AAD74A9864DC05,0xFFFFFFFFFFFFFFFF
0.671347040000000,225,0xA0AAD74A9864DC05,0xFFFFFFFFFFFFFFFF
0.674328160000000,226,0xA0AAD74A9864DC05,0xFFFFFFFFFFFFFFFF
0.677309880000000,227,0xA0AAD74A9864DC05,0xFFFFFFFFFFFFFFFF
0.680290640000000,228,0xA0AAD74A9864DC05,0xFFFFFFFFFFFFFFFF
0.683271760000000,229,0xA0AAD74A9864DC05,0xFFFFFFFFFFFFFFFF
0.686252720000000,230,0xA0AAD74A9864DC05,0xFFFFFFFFFFFFFFFF
0.689233720000000,231,0xA0AAD74A9864DC05,0xFFFFFFFFFFFFFFFF
0.692214640000000,232,0xA0AAD74A9864DC05,0xFFFFFFFFFFFFFFFF
0.695195720000000,233,0xA0AAD74A9864DC05,0xFFFFFFFFFFFFFFFF
0.698176600000000,234,0xA0AAD74A9864DC05,0xFFFFFFFFFFFFFFFF
0.701155520000000,235,0xA0AAD74A9864DC05,0xFFFFFFFFFFFFFFFF
0.704136840000000,236,0xA0AAD74A9864DC05,0xFFFFFFFFFFFFFFFF
0.707118400000000,237,0xA0AAD74A9864DC05,0xFFFFFFFFFFFFFFFF
0.710099800000000,238,0xA0AAD74A9864DC05,0xFFFFFFFFFFFFFFFF
0.713081160000000,239,0xA0AAD74A9864DC05,0xFFFFFFFFFFFFFFFF
0.716062400000000,240,0xA0AAD74A9864DC05,0xFFFFFFFFFFFFFFFF
0.719043840000000,241,0xA0AAD74A9864DC05,0xFFFFFFFFFFFFFFFF
0.722025320000000,242,0xA0AAD74A9864DC05,0xFFFFFFFFFFFFFFFF
0.725006920000000,243,0xA0AAD74A9864DC05,0xFFFFFFFFFFFFFFFF
0.727988360000000,244,0xA0AAD74A9864DC05,0xFFFFFFFFFFFFFFFF
0.730969960000000,245,0xA0AAD74A9864DC05,0xFFFFFFFFFFFFFFFF
0.733951480000000,246,0xA0AAD74A9864DC05,0xFFFFFFFFFFFFFFFF
0.736932200000000,247,0xA0AAD74A9864DC05,0xFFFFFFFFFFFFFFFF
0.739913480000000,248,0xA0AAD74A9864DC05,0xFFFFFFFFFFFFFFFF
0.742895120000000,249,0xA0AAD74A9864DC05,0xFFFFFFFFFFFFFFFF
0.745876800000000,250,0xA0AAD74A9864DC05,0xFFFFFFFFFFFFFFFF
0.748858400000000,251,0xA0AAD74A9864DC05,0xFFFFFFFFFFFFFFFF
0.751839160000000,252,0xA0AAD74A9864DC05,0xFFFFFFFFFFFFFFFF
0.754820440000000,253,0xA0AAD74A9864DC05,0xFFFFFFFFFFFFFFFF
0.757802200000000,254,0xA0AAD74A9864DC05,0xFFFFFFFFFFFFFFFF
0.760783960000000,255,0xA0AAD74A9864DC05,0xFFFFFFFFFFFFFFFF
0.763765560000000,256,0xA0AAD74A9864DC05,0xFFFFFFFFFFFFFFFF
0.766747040000000,257,0xA0AAD74A9864DC05,0xFFFFFFFFFFFFFFFF
0.769728520000000,258,0xA0AAD74A9864DC05,0xFFFFFFFFFFFFFFFF
0.772710120000000,259,0xA0AAD74A9864DC05,0xFFFFFFFFFFFFFFFF
0.775691640000000,260,0xA0AAD74A9864DC05,0xFFFFFFFFFFFFFFFF
0.778673120000000,261,0xA0AAD74A9864DC05,0xFFFFFFFFFFFFFFFF
0.781654760000000,262,0xA0AAD74A9864DC05,0xFFFFFFFFFFFFFFFF
0.784636400000000,263,0xA0AAD74A9864DC05,0xFFFFFFFFFFFFFFFF
0.787617920000000,264,0xA0AAD74A9864DC05,0xFFFFFFFFFFFFFFFF
0.790599400000000,265,0xA0AAD74A9864DC05,0xFFFFFFFFFFFFFFFF
0.793580880000000,266,0xA0AAD74A9864DC05,0xFFFFFFFFFFFFFFFF
0.796562280000000,267,0xA0AAD74A9864DC05,0xFFFFFFFFFFFFFFFF
0.799543720000000,268,0xA0AAD74A9864DC05,0xFFFFFFFFFFFFFFFF
0.802525360000000,269,0xA0AAD74A9864DC05,0xFFFFFFFFFFFFFFFF
0.805506840000000,270,0xA0AAD74A9864DC05,0xFFFFFFFFFFFFFFFF
0.808488200000000,271,0xA0AAD74A9864DC05,0xFFFFFFFFFFFFFFFF
0.811468680000000,272,0xA0AAD74A9864DC05,0xFFFFFFFFFFFFFFFF
0.814450000000000,273,0xA0AAD74A9864DC05,0xFFFFFFFFFFFFFFFF
0.817431520000000,274,0xA0AAD74A9864DC05,0xFFFFFFFFFFFFFFFF
0.820413240000000,275,0xA0AAD74A9864DC05,0xFFFFFFFFFFFFFFFF
0.823394720000000,276,0xA0AAD74A9864DC05,0xFFFFFFFFFFFFFFFF
0.826376320000000,277,0xA0AAD74A9864DC05,0xFFFFFFFFFFFFFFFF
0.829357880000000,278,0xA0AAD74A9864DC05,0xFFFFFFFFFFFFFFFF
0.832339520000000,279,0xA0AAD74A9864DC05,0xFFFFFFFFFFFFFFFF
0.835321080000000,280,0xA0AAD74A9864DC05,0xFFFFFFFFFFFFFFFF
0.838302720000000,281,0xA0AAD74A9864DC05,0xFFFFFFFFFFFFFFFF
0.841283200000000,282,0xA0AAD74A9864DC05,0xFFFFFFFFFFFFFFFF
0.844264760000000,283,0xA0AAD74A9864DC05,0xFFFFFFFFFFFFFFFF
0.847245320000000,284,0xA0AAD74A9864DC05,0xFFFFFFFFFFFFFFFF
0.850226600000000,285,0xA0AAD74A9864DC05,0xFFFFFFFFFFFFFFFF
0.853208240000000,286,0xA0AAD74A9864DC05,0xFFFFFFFFFFFFFFFF
0.856189720000000,287,0xA0AAD74A9864DC05,0xFFFFFFFFFFFFFFFF
0.859171240000000,288,0xA0AAD74A9864DC05,0xFFFFFFFFFFFFFFFF
0.862152800000000,289,0xA0AAD74A9864DC05,0xFFFFFFFFFFFFFFFF
0.865134400000000,290,0xA0AAD74A9864DC05,0xFFFFFFFFFFFFFFFF
0.868114960000000,291,0xA0AAD74A9864DC05,0xFFFFFFFFFFFFFFFF
0.871096200000000,292,0xA0AAD74A9864DC05,0xFFFFFFFFFFFFFFFF
0.874077680000000,293,0xA0AAD74A9864DC05,0xFFFFFFFFFFFFFFFF
0.877059160000000,294,0xA0AAD74A9864DC05,0xFFFFFFFFFFFFFFFF
0.880040640000000,295,0xA0AAD74A9864DC05,0xFFFFFFFFFFFFFFFF
0.883022280000000,296,0xA0AAD74A9864DC05,0xFFFFFFFFFFFFFFFF
0.886003840000000,297,0xA0AAD74A9864DC05,0xFFFFFFFFFFFFFFFF
0.888985520000000,298,0xA0AAD74A9864DC05,0xFFFFFFFFFFFFFFFF
0.891967080000000,299,0xA0AAD74A9864DC05,0xFFFFFFFFFFFFFFFF
0.894948600000000,300,0xA0AAD74A9864DC05,0xFFFFFFFFFFFFFFFF
0.897930240000000,301,0xA0AAD74A9864DC05,0xFFFFFFFFFFFFFFFF
0.900911840000000,302,0xA0AAD74A9864DC05,0xFFFFFFFFFFFFFFFF
0.903893400000000,303,0xA0AAD74A9864DC05,0xFFFFFFFFFFFFFFFF
0.906874880000000,304,0xA0AAD74A9864DC05,0xFFFFFFFFFFFFFFFF
0.909856560000000,305,0xA0AAD74A9864DC05,0xFFFFFFFFFFFFFFFF
0.912838200000000,306,0xA0AAD74A9864DC05,0xFFFFFFFFFFFFFFFF
0.915819000000000,307,0xA0AAD74A9864DC05,0xFFFFFFFFFFFFFFFF
0.918800280000000,308,0xA0AAD74A9864DC05,0xFFFFFFFFFFFFFFFF
0.921781800000000,309,0xA0AAD74A9864DC05,0xFFFFFFFFFFFFFFFF
0.924763320000000,310,0xA0AAD74A9864DC05,0xFFFFFFFFFFFFFFFF
0.927744920000000,311,0xA0AAD74A9864DC05,0xFFFFFFFFFFFFFFFF
0.930726440000000,312,0xA0AAD74A9864DC05,0xFFFFFFFFFFFFFFFF
0.933708080000000,313,0xA0AAD74A9864DC05,0xFFFFFFFFFFFFFFFF
0.936689640000000,314,0xA0AAD74A9864DC05,0xFFFFFFFFFFFFFFFF
0.939671080000000,315,0xA0AAD74A9864DC05,0xFFFFFFFFFFFFFFFF
0.942652520000000,316,0xA0AAD74A9864DC05,0xFFFFFFFFFFFFFFFF
0.945634280000000,317,0xA0AAD74A9864DC05,0xFFFFFFFFFFFFFFFF
0.948615760000000,318,0xA0AAD74A9864DC05,0xFFFFFFFFFFFFFFFF
0.951597440000000,319,0xA0AAD74A9864DC05,0xFFFFFFFFFFFFFFFF
0.954578920000000,320,0xA0AAD74A9864DC05,0xFFFFFFFFFFFFFFFF
0.957560400000000,321,0xA0AAD74A9864DC05,0xFFFFFFFFFFFFFFFF
0.960541920000000,322,0xA0AAD74A9864DC05,0xFFFFFFFFFFFFFFFF
0.963523600000000,323,0xA0AAD74A9864DC05,0xFFFFFFFFFFFFFFFF
0.966505120000000,324,0xA0AAD74A9864DC05,0xFFFFFFFFFFFFFFFF
0.969486720000000,325,0xA0AAD74A9864DC05,0xFFFFFFFFFFFFFFFF
0.972467320000000,326,0xA0AAD74A9864DC05,0xFFFFFFFFFFFFFFFF
0.975448800000000,327,0xA0AAD74A9864DC05,0xFFFFFFFFFFFFFFFF
0.978430400000000,328,0xA0AAD74A9864DC05,0xFFFFFFFFFFFFFFFF
0.981412000000000,329,0xA0AAD74A9864DC05,0xFFFFFFFFFFFFFFFF
0.984393720000000,330,0xA0AAD74A9864DC05,0xFFFFFFFFFFFFFFFF
0.987375360000000,331,0xA0AAD74A9864DC05,0xFFFFFFFFFFFFFFFF
0.990356920000000,332,0xA0AAD74A9864DC05,0xFFFFFFFFFFFFFFFF
0.993338720000000,333,0xA0AAD74A9864DC05,0xFFFFFFFFFFFFFFFF
