Time [s],Packet ID,MOSI,MISO
0.000092800000000,0,0xA055DC05DC05DC05,0x0000000000000000
0.003072040000000,1,0xA055DC05DC05DC05,0x0000000000000000
0.006051360000000,2,0xA055DC05DC05DC05,0x0000000000000000
0.009030760000000,3,0xA055DC05DC05DC05,0x0000000000000000
0.012010080000000,4,0xA055DC05DC05DC05,0x0000000000000000
0.014989480000000,5,0xA055DC05DC05DC05,0x0000000000000000
0.017968840000000,6,0xA055DC05DC05DC05,0x0000000000000000
0.020948160000000,7,0xA055DC05DC05DC05,0x0000000000000000
0.023927560000000,8,0xA055DC05DC05DC05,0x0000000000000000
0.026907040000000,9,0xA055DC05DC05DC05,0x0000000000000000
0.029886480000000,10,0xA055DC05DC05DC05,0x0000000000000000
0.032866000000000,11,0xA055DC05DC05DC05,0x0000000000000000
0.035845360000000,12,0xA055DC05DC05DC05,0x0000000000000000
0.038824720000000,13,0xA055DC05DC05DC05,0x0000000000000000
0.041804000000000,14,0xA055DC05DC05DC05,0x0000000000000000
0.044783440000000,15,0xA055DC05DC05DC05,0x0000000000000000
0.047762760000000,16,0xA055DC05DC05DC05,0x0000000000000000
0.050742040000000,17,0xA055DC05DC05DC05,0x0000000000000000
0.053721280000000,18,0xA055DC05DC05DC05,0x0000000000000000
0.056700600000000,19,0xA055DC05DC05DC05,0x0000000000000000
0.059680000000000,20,0xA055DC05DC05DC05,0x0000000000000000
0.062659480000000,21,0xA055DC05DC05DC05,0x0000000000000000
0.065638800000000,22,0xA055DC05DC05DC05,0x0000000000000000
0.068618560000000,23,0xA055DC05DC05DC05,0x0000000000000000
0.071598320000000,24,0xA055DC05DC05DC05,0x0000000000000000
0.074578120000000,25,0xA055DC05DC05DC05,0x0000000000000000
0.077558080000000,26,0xA055DC05DC05DC05,0x0000000000000000
0.080537840000000,27,0xA055DC05DC05DC05,0x0000000000000000
0.083517640000000,28,0xA055DC05DC05DC05,0x0000000000000000
0.086497400000000,29,0xA055DC05DC05DC05,0x0000000000000000
0.089477160000000,30,0xA055DC05DC05DC05,0x0000000000000000
0.092456920000000,31,0xA055DC05DC05DC05,0x0000000000000000
0.095436680000000,32,0xA055DC05DC05DC05,0x0000000000000000
0.098416560000000,33,0xA055DC05DC05DC05,0x0000000000000000
0.101396240000000,34,0xA055DC05DC05DC05,0x0000000000000000
0.104375840000000,35,0xA055DC05DC05DC05,0x0000000000000000
0.107355280000000,36,0xA055DC05DC05DC05,0x0000000000000000
0.110334720000000,37,0xA055DC05DC05DC05,0x0000000000000000
0.113314360000000,38,0xA055DC05DC05DC05,0x0000000000000000
0.116294000000000,39,0xA055DC05DC05DC05,0x0000000000000000
0.119273440000000,40,0xA055DC05DC05DC05,0x0000000000000000
0.122252960000000,41,0xA055DC05DC05DC05,0x0000000000000000
0.125232600000000,42,0xA055DC05DC05DC05,0x0000000000000000
0.128212080000000,43,0xA055DC05DC05DC05,0x0000000000000000
0.131191760000000,44,0xA055DC05DC05DC05,0x0000000000000000
0.134171320000000,45,0xA055DC05DC05DC05,0x0000000000000000
0.137150680000000,46,0xA055DC05DC05DC05,0x0000000000000000
0.140130240000000,47,0xA055DC05DC05DC05,0x0000000000000000
0.143109560000000,48,0xA055DC05DC05DC05,0x0000000000000000
0.146089120000000,49,0xA055DC05DC05DC05,0x0000000000000000
0.149068600000000,50,0xA055DC05DC05DC05,0x0000000000000000
0.152048000000000,51,0xA055DC05DC05DC05,0x0000000000000000
0.155027360000000,52,0xA055DC05DC05DC05,0x0000000000000000
0.158006840000000,53,0xA055DC05DC05DC05,0x0000000000000000
0.160986320000000,54,0xA055DC05DC05DC05,0x0000000000000000
0.163965800000000,55,0xA055DC05DC05DC05,0x0000000000000000
0.166945240000000,56,0xA055DC05DC05DC05,0x0000000000000000
0.169924760000000,57,0xA055DC05DC05DC05,0x0000000000000000
0.172904240000000,58,0xA055DC05DC05DC05,0x0000000000000000
0.175883880000000,59,0xA055DC05DC05DC05,0x0000000000000000
0.178863240000000,60,0xA055DC05DC05DC05,0x0000000000000000
0.181842680000000,61,0xA055DC05DC05DC05,0x0000000000000000
0.184822120000000,62,0xA055DC05DC05DC05,0x0000000000000000
0.187801720000000,63,0xA055DC05DC05DC05,0x0000000000000000
0.190781200000000,64,0xA055DC05DC05DC05,0x0000000000000000
0.193760760000000,65,0xA055DC05DC05DC05,0x0000000000000000
0.196740400000000,66,0xA055DC05DC05DC05,0x0000000000000000
0.199719880000000,67,0xA055DC05DC05DC05,0x0000000000000000
0.202699360000000,68,0xA055DC05DC05DC05,0x0000000000000000
0.205678920000000,69,0xA055DC05DC05DC05,0x0000000000000000
0.208658440000000,70,0xA055DC05DC05DC05,0x0000000000000000
0.211638160000000,71,0xA055DC05DC05DC05,0x0000000000000000
0.214617560000000,72,0xA055DC05DC05DC05,0x0000000000000000
0.217597160000000,73,0xA055DC05DC05DC05,0x0000000000000000
0.220576840000000,74,0xA055DC05DC05DC05,0x0000000000000000
0.223556400000000,75,0xA055DC05DC05DC05,0x0000000000000000
0.226535800000000,76,0xA055DC05DC05DC05,0x0000000000000000
0.229515320000000,77,0xA055DC05DC05DC05,0x0000000000000000
0.232494680000000,78,0xA055DC05DC05DC05,0x0000000000000000
0.235474240000000,79,0xA055DC05DC05DC05,0x0000000000000000
0.238453720000000,80,0xA055DC05DC05DC05,0x0000000000000000
0.241433280000000,81,0xA055DC05DC05DC05,0x0000000000000000
0.244412680000000,82,0xA055DC05DC05DC05,0x0000000000000000
0.247392160000000,83,0xA055DC05DC05DC05,0x0000000000000000
0.250371720000000,84,0xA055DC05DC05DC05,0x0000000000000000
0.253351200000000,85,0xA055DC05DC05DC05,0x0000000000000000
0.256330720000000,86,0xA055DC05DC05DC05,0x0000000000000000
0.259310440000000,87,0xA055DC05DC05DC05,0x0000000000000000
0.262289920000000,88,0xA055DC05DC05DC05,0x0000000000000000
0.265269640000000,89,0xA055DC05DC05DC05,0x0000000000000000
0.268249360000000,90,0xA055DC05DC05DC05,0x0000000000000000
0.271229120000000,91,0xA055DC05DC05DC05,0x0000000000000000
0.274208680000000,92,0xA055DC05DC05DC05,0x0000000000000000
0.277188280000000,93,0xA055DC05DC05DC05,0x0000000000000000
0.280167920000000,94,0xA055DC05DC05DC05,0x0000000000000000
0.283147600000000,95,0xA055DC05DC05DC05,0x0000000000000000
0.286127280000000,96,0xA055DC05DC05DC05,0x0000000000000000
0.289107160000000,97,0xA055DC05DC05DC05,0x0000000000000000
0.292087040000000,98,0xA055DC05DC05DC05,0x0000000000000000
0.295066800000000,99,0xA055DC05DC05DC05,0x0000000000000000
0.298046440000000,100,0xA055DC05DC05DC05,0x0000000000000000
0.301025840000000,101,0xA055DC05DC05DC05,0x0000000000000000
0.304005400000000,102,0xA055DC05DC05DC05,0x0000000000000000
0.306984960000000,103,0xA055DC05DC05DC05,0x0000000000000000
0.309964360000000,104,0xA055DC05DC05DC05,0x0000000000000000
0.312943800000000,105,0xA055DC05DC05DC05,0x0000000000000000
0.315923280000000,106,0xA055DC05DC05DC05,0x0000000000000000
0.318902960000000,107,0xA055DC05DC05DC05,0x0000000000000000
0.321882760000000,108,0xA055DC05DC05DC05,0x0000000000000000
0.324862360000000,109,0xA055DC05DC05DC05,0x0000000000000000
0.327842000000000,110,0xA055DC05DC05DC05,0x0000000000000000
0.330821920000000,111,0xA055DC05DC05DC05,0x0000000000000000
0.333801760000000,112,0xA055DC05DC05DC05,0x0000000000000000
0.336781600000000,113,0xA055DC05DC05DC05,0x0000000000000000
0.339761640000000,114,0xA055DC05DC05DC05,0x0000000000000000
0.342741840000000,115,0xA055DC05DC05DC05,0x0000000000000000
0.345721880000000,116,0xA055DC05DC05DC05,0x0000000000000000
0.348701840000000,117,0xA055DC05DC05DC05,0x0000000000000000
0.351681840000000,118,0xA055DC05DC05DC05,0x0000000000000000
0.354662040000000,119,0xA055DC05DC05DC05,0x0000000000000000
0.357642200000000,120,0xA055DC05DC05DC05,0x0000000000000000
0.360622280000000,121,0xA055DC05DC05DC05,0x0000000000000000
0.363602520000000,122,0xA055DC05DC05DC05,0x0000000000000000
0.366583040000000,123,0xA055DC05DC05DC05,0x0000000000000000
0.369563360000000,124,0xA055DC05DC05DC05,0x0000000000000000
0.372543600000000,125,0xA055DC05DC05DC05,0x0000000000000000
0.375523920000000,126,0xA055DC05DC05DC05,0x0000000000000000
0.378504480000000,127,0xA055DC05DC05DC05,0x0000000000000000
0.381485040000000,128,0xA055DC05DC05DC05,0x0000000000000000
0.384465880000000,129,0xA055DC05DC05DC05,0x0000000000000000
0.387446880000000,130,0xA055DC05DC05DC05,0x0000000000000000
0.390427920000000,131,0xA055DC05DC05DC05,0x0000000000000000
0.393408840000000,132,0xA055DC05DC05DC05,0x0000000000000000
0.396389760000000,133,0xA055DC05DC05DC05,0x0000000000000000
0.399370800000000,134,0xA055DC05DC05DC05,0x0000000000000000
0.402351400000000,135,0xA055DC05DC05DC05,0x0000000000000000
0.405332000000000,136,0xA055DC05DC05DC05,0x0000000000000000
0.408312960000000,137,0xA055DC05DC05DC05,0x0000000000000000
0.411294960000000,138,0xA055DC05DC05DC05,0x0000000000000000
0.414277600000000,139,0xA055DC05DC05DC05,0x0000000000000000
0.417260720000000,140,0xA055DC05DC05DC05,0x0000000000000000
0.420243840000000,141,0xA055DC05DC05DC05,0x0000000000000000
0.423227280000000,142,0xA055DC05DC05DC05,0x0000000000000000
0.426210160000000,143,0xA055DC05DC05DC05,0x0000000000000000
0.429193640000000,144,0xA055DC05DC05DC05,0x0000000000000000
0.432177120000000,145,0xA055DC05DC05DC05,0x0000000000000000
0.435161000000000,146,0xA055DC05DC05DC05,0x0000000000000000
0.438144320000000,147,0xA055DC05DC05DC05,0x0000000000000000
0.441128000000000,148,0xA055DC05DC05DC05,0x0000000000000000
0.444111720000000,149,0xA055DC05DC05DC05,0x0000000000000000
0.447095640000000,150,0xA055DC05DC05DC05,0x0000000000000000
0.450079120000000,151,0xA055DC05DC05DC05,0x0000000000000000
0.453063000000000,152,0xA055DC05DC05DC05,0x0000000000000000
0.456046800000000,153,0xA055DC05DC05DC05,0x0000000000000000
0.459031040000000,154,0xA055DC05DC05DC05,0x0000000000000000
0.462014680000000,155,0xA055DC05DC05DC05,0x0000000000000000
0.464998880000000,156,0xA055DC05DC05DC05,0x0000000000000000
0.467982960000000,157,0xA055DC05DC05DC05,0x0000000000000000
0.470965920000000,,0xA055DC05DC05DC05,0x0000000000000000
